T0C98 000:083.145   SEGGER J-Link V6.70e Log File
T0C98 000:083.453   DLL Compiled: Apr 17 2020 17:55:05
T0C98 000:083.470   Logging started @ 2020-12-12 10:58
T0C98 000:083.494 JLINK_SetWarnOutHandler(...)
T0C98 000:083.515 - 0.030ms
T0C98 000:083.550 JLINK_OpenEx(...)
T0C98 000:085.138   Firmware: J-Link ARM-OB STM32 compiled Aug 22 2012 19:52:04
T0C98 000:087.144   Hardware: V7.00
T0C98 000:087.178   S/N: 20160713
T0C98 000:087.200   OEM: SEGGER
T0C98 000:087.222   Feature(s): RDI,FlashDL,FlashBP,JFlash,GDBFull
T0C98 000:088.494   TELNET listener socket opened on port 19021
T0C98 000:089.077   WEBSRV Starting webserver
T0C98 000:089.386   WEBSRV Webserver running on local port 19080
T0C98 000:089.417 - 5.875ms returns "O.K."
T0C98 000:089.475 JLINK_GetEmuCaps()
T0C98 000:089.491 - 0.024ms returns 0x88EA5833
T0C98 000:089.514 JLINK_TIF_GetAvailable(...)
T0C98 000:089.739 - 0.240ms
T0C98 000:089.775 JLINK_SetErrorOutHandler(...)
T0C98 000:089.793 - 0.031ms
T0C98 000:089.862 JLINK_ExecCommand("ProjectFile = "D:\xProject\G_Design_STM32F103\vehicle\Projects\Application_BootLoader\MDK-ARM\JLinkSettings.ini"", ...). 
T0C98 000:115.921 - 26.106ms returns 0x00
T0C98 000:116.010 JLINK_ExecCommand("Device = STM32F103C8", ...). 
T0C98 000:116.669   Device "STM32F103C8" selected.
T0C98 000:117.249 - 1.209ms returns 0x00
T0C98 000:117.302 JLINK_ExecCommand("DisableConnectionTimeout", ...). 
T0C98 000:117.334 - 0.016ms returns 0x01
T0C98 000:117.426 JLINK_GetHardwareVersion()
T0C98 000:117.446 - 0.028ms returns 0x11170
T0C98 000:117.468 JLINK_GetDLLVersion()  returns 67005
T0C98 000:117.501 JLINK_GetFirmwareString(...)
T0C98 000:117.515 - 0.021ms
T0C98 000:117.577 JLINK_GetDLLVersion()  returns 67005
T0C98 000:117.598 JLINK_GetCompileDateTime()
T0C98 000:117.612 - 0.021ms
T0C98 000:117.653 JLINK_GetFirmwareString(...)
T0C98 000:117.668 - 0.023ms
T0C98 000:117.701 JLINK_GetHardwareVersion()
T0C98 000:117.719 - 0.026ms returns 0x11170
T0C98 000:117.794 JLINK_TIF_Select(JLINKARM_TIF_SWD)
T0C98 000:118.844 - 1.068ms returns 0x00
T0C98 000:119.455 JLINK_SetSpeed(5000)
T0C98 000:119.589 - 0.147ms
T0C98 000:119.620 JLINK_GetId()
T0C98 000:120.735   Found SW-DP with ID 0x1BA01477
T0C98 000:132.739   Found SW-DP with ID 0x1BA01477
T0C98 000:135.424   Old FW that does not support reading DPIDR via DAP jobs
T0C98 000:138.839   Unknown DP version. Assuming DPv0
T0C98 000:138.896   Scanning AP map to find all available APs
T0C98 000:140.998   AP[1]: Stopped AP scan as end of AP map has been reached
T0C98 000:141.030   AP[0]: AHB-AP (IDR: 0x14770011)
T0C98 000:141.053   Iterating through AP map to find AHB-AP to use
T0C98 000:145.117   AP[0]: Core found
T0C98 000:145.148   AP[0]: AHB-AP ROM base: 0xE00FF000
T0C98 000:147.015   CPUID register: 0x411FC231. Implementer code: 0x41 (ARM)
T0C98 000:147.047   Found Cortex-M3 r1p1, Little endian.
T0C98 000:248.812    -- Max. mem block: 0x00002C18
T0C98 000:248.876   CPU_ReadMem(4 bytes @ 0xE000EDF0)
T0C98 000:249.791   CPU_WriteMem(4 bytes @ 0xE000EDF0)
T0C98 000:250.591   CPU_ReadMem(4 bytes @ 0xE0002000)
T0C98 000:251.178   FPUnit: 6 code (BP) slots and 2 literal slots
T0C98 000:251.213   CPU_ReadMem(4 bytes @ 0xE000EDFC)
T0C98 000:251.904   CPU_WriteMem(4 bytes @ 0xE000EDFC)
T0C98 000:252.608   CPU_ReadMem(4 bytes @ 0xE0001000)
T0C98 000:253.070   CPU_WriteMem(4 bytes @ 0xE0001000)
T0C98 000:253.643   CPU_ReadMem(4 bytes @ 0xE000ED88)
T0C98 000:254.291   CPU_WriteMem(4 bytes @ 0xE000ED88)
T0C98 000:254.791   CPU_ReadMem(4 bytes @ 0xE000ED88)
T0C98 000:255.429   CPU_WriteMem(4 bytes @ 0xE000ED88)
T0C98 000:256.090   CoreSight components:
T0C98 000:256.755   ROMTbl[0] @ E00FF000
T0C98 000:256.779   CPU_ReadMem(64 bytes @ 0xE00FF000)
T0C98 000:257.911   CPU_ReadMem(32 bytes @ 0xE000EFE0)
T0C98 000:258.874   ROMTbl[0][0]: E000E000, CID: B105E00D, PID: 001BB000 SCS
T0C98 000:258.898   CPU_ReadMem(32 bytes @ 0xE0001FE0)
T0C98 000:259.815   ROMTbl[0][1]: E0001000, CID: B105E00D, PID: 001BB002 DWT
T0C98 000:259.837   CPU_ReadMem(32 bytes @ 0xE0002FE0)
T0C98 000:260.830   ROMTbl[0][2]: E0002000, CID: B105E00D, PID: 000BB003 FPB
T0C98 000:260.851   CPU_ReadMem(32 bytes @ 0xE0000FE0)
T0C98 000:261.652   ROMTbl[0][3]: E0000000, CID: B105E00D, PID: 001BB001 ITM
T0C98 000:261.676   CPU_ReadMem(32 bytes @ 0xE0040FE0)
T0C98 000:262.643   ROMTbl[0][4]: E0040000, CID: B105900D, PID: 001BB923 TPIU-Lite
T0C98 000:263.588 - 143.979ms   returns 0x1BA01477
T0C98 000:263.619 JLINK_GetDLLVersion()  returns 67005
T0C98 000:263.634 JLINK_CORE_GetFound()
T0C98 000:263.645 - 0.016ms returns 0x30000FF
T0C98 000:263.664 JLINK_GetDebugInfo(0x100 = JLINKARM_ROM_TABLE_ADDR_INDEX)
T0C98 000:263.681   Value=0xE00FF000
T0C98 000:263.696 - 0.037ms returns 0x00
T0C98 000:263.730 JLINK_GetDebugInfo(0x100 = JLINKARM_ROM_TABLE_ADDR_INDEX)
T0C98 000:263.742   Value=0xE00FF000
T0C98 000:263.756 - 0.031ms returns 0x00
T0C98 000:263.772 JLINK_GetDebugInfo(0x101 = JLINKARM_DEBUG_INFO_ETM_ADDR_INDEX)
T0C98 000:263.783   Value=0x00000000
T0C98 000:263.797 - 0.030ms returns 0x00
T0C98 000:263.878   JLINK_ReadMemEx(0xE0041FF0, 0x0010 Bytes, ..., Flags = 0x02000004)
T0C98 000:263.955   CPU_ReadMem(16 bytes @ 0xE0041FF0)
T0C98 000:264.720   Data:  00 00 00 00 00 00 00 00 00 00 00 00 00 00 00 00
T0C98 000:264.740 - 0.877ms returns 0x10
T0C98 000:264.759 JLINK_GetDebugInfo(0x102 = JLINKARM_DEBUG_INFO_MTB_ADDR_INDEX)
T0C98 000:264.770   Value=0x00000000
T0C98 000:264.785 - 0.031ms returns 0x00
T0C98 000:264.799 JLINK_GetDebugInfo(0x103 = JLINKARM_DEBUG_INFO_TPIU_ADDR_INDEX)
T0C98 000:264.809   Value=0xE0040000
T0C98 000:264.824 - 0.030ms returns 0x00
T0C98 000:264.837 JLINK_GetDebugInfo(0x104 = JLINKARM_DEBUG_INFO_ITM_ADDR_INDEX)
T0C98 000:264.848   Value=0xE0000000
T0C98 000:264.862 - 0.029ms returns 0x00
T0C98 000:264.876 JLINK_GetDebugInfo(0x105 = JLINKARM_DEBUG_INFO_DWT_ADDR_INDEX)
T0C98 000:264.892   Value=0xE0001000
T0C98 000:264.907 - 0.035ms returns 0x00
T0C98 000:264.921 JLINK_GetDebugInfo(0x106 = JLINKARM_DEBUG_INFO_FPB_ADDR_INDEX)
T0C98 000:264.932   Value=0xE0002000
T0C98 000:264.946 - 0.030ms returns 0x00
T0C98 000:264.960 JLINK_GetDebugInfo(0x107 = JLINKARM_DEBUG_INFO_NVIC_ADDR_INDEX)
T0C98 000:264.970   Value=0xE000E000
T0C98 000:264.985 - 0.030ms returns 0x00
T0C98 000:264.999 JLINK_GetDebugInfo(0x10C = JLINKARM_DEBUG_INFO_DBG_ADDR_INDEX)
T0C98 000:265.009   Value=0xE000EDF0
T0C98 000:265.024 - 0.030ms returns 0x00
T0C98 000:265.037 JLINK_GetDebugInfo(0x01 = Unknown)
T0C98 000:265.055   Value=0x00000000
T0C98 000:265.069 - 0.036ms returns 0x00
T0C98 000:265.546 JLINK_ReadMemU32(0xE000ED00, 0x0001 Items, ...)
T0C98 000:265.571   CPU_ReadMem(4 bytes @ 0xE000ED00)
T0C98 000:266.020   Data:  31 C2 1F 41
T0C98 000:266.049    - CPUID
T0C98 000:266.064 - 0.523ms returns 1
T0C98 000:266.082 JLINK_GetDebugInfo(0x10F = JLINKARM_DEBUG_INFO_HAS_CORTEX_M_SECURITY_EXT_INDEX)
T0C98 000:266.093   Value=0x00000000
T0C98 000:266.108 - 0.030ms returns 0x00
T0C98 000:266.127 JLINK_SetResetType(JLINKARM_CM3_RESET_TYPE_NORMAL)
T0C98 000:266.138 - 0.015ms returns JLINKARM_CM3_RESET_TYPE_NORMAL
T0C98 000:266.152 JLINK_Reset()
T0C98 000:266.635   CPU is running
T0C98 000:266.658   CPU_WriteMem(4 bytes @ 0xE000EDF0)
T0C98 000:267.334   CPU is running
T0C98 000:267.355   CPU_WriteMem(4 bytes @ 0xE000EDFC)
T0C98 000:268.052   Reset: Halt core after reset via DEMCR.VC_CORERESET.
T0C98 000:268.783   Reset: Reset device via AIRCR.SYSRESETREQ.
T0C98 000:268.804   CPU is running
T0C98 000:268.821   CPU_WriteMem(4 bytes @ 0xE000ED0C)
T0C98 000:322.703   CPU_ReadMem(4 bytes @ 0xE000EDF0)
T0C98 000:323.659   CPU_ReadMem(4 bytes @ 0xE000EDF0)
T0C98 000:324.616   CPU is running
T0C98 000:324.653   CPU_WriteMem(4 bytes @ 0xE000EDF0)
T0C98 000:325.673   CPU is running
T0C98 000:325.710   CPU_WriteMem(4 bytes @ 0xE000EDFC)
T0C98 000:332.068   CPU_ReadMem(4 bytes @ 0xE000EDF0)
T0C98 000:336.501   CPU_WriteMem(4 bytes @ 0xE0002000)
T0C98 000:337.205   CPU_ReadMem(4 bytes @ 0xE000EDFC)
T0C98 000:337.807   CPU_ReadMem(4 bytes @ 0xE0001000)
T0C98 000:338.556 - 72.427ms
T0C98 000:338.610 JLINK_ReadReg(R15 (PC))
T0C98 000:338.629 - 0.026ms returns 0x08000100
T0C98 000:338.646 JLINK_ReadReg(XPSR)
T0C98 000:338.658 - 0.018ms returns 0x01000000
T0C98 000:338.676 JLINK_Halt()
T0C98 000:338.693 - 0.024ms returns 0x00
T0C98 000:338.718 JLINK_ReadMemU32(0xE000EDF0, 0x0001 Items, ...)
T0C98 000:338.756   CPU_ReadMem(4 bytes @ 0xE000EDF0)
T0C98 000:339.746   Data:  03 00 03 00
T0C98 000:339.802    - DHCSR
T0C98 000:339.838 - 1.135ms returns 1
T0C98 000:339.885 JLINK_WriteU32(0xE000EDF0, 0xA05F0003)
T0C98 000:339.906    - DHCSR
T0C98 000:339.974   CPU_WriteMem(4 bytes @ 0xE000EDF0)
T0C98 000:340.947 - 1.098ms returns 0
T0C98 000:341.020 JLINK_WriteU32(0xE000EDFC, 0x01000000)
T0C98 000:341.053    - DEMCR
T0C98 000:341.090   CPU_WriteMem(4 bytes @ 0xE000EDFC)
T0C98 000:342.002 - 1.024ms returns 0
T0C98 000:342.165 JLINK_GetHWStatus(...)
T0C98 000:342.535 - 0.386ms returns 0x00
T0C98 000:342.613 JLINK_GetNumBPUnits(Type = 0xFFFFFF00)
T0C98 000:342.630 - 0.022ms returns 0x06
T0C98 000:342.645 JLINK_GetNumBPUnits(Type = 0xF0)
T0C98 000:342.656 - 0.016ms returns 0x2000
T0C98 000:342.671 JLINK_GetNumWPUnits()
T0C98 000:342.692 - 0.028ms returns 0x04
T0C98 000:342.764 JLINK_GetSpeed()
T0C98 000:342.791 - 0.034ms returns 0xFA0
T0C98 000:342.845 JLINK_ReadMemU32(0xE000E004, 0x0001 Items, ...)
T0C98 000:342.879   CPU_ReadMem(4 bytes @ 0xE000E004)
T0C98 000:343.587   Data:  01 00 00 00
T0C98 000:343.611 - 0.771ms returns 1
T0C98 000:343.630 JLINK_ReadMemU32(0xE000E004, 0x0001 Items, ...)
T0C98 000:343.649   CPU_ReadMem(4 bytes @ 0xE000E004)
T0C98 000:344.341   Data:  01 00 00 00
T0C98 000:344.364 - 0.739ms returns 1
T0C98 000:344.384 JLINK_WriteMemEx(0xE0001000, 0x001C Bytes, ..., Flags = 0x02000004)
T0C98 000:344.397   Data:  01 00 00 00 00 00 00 00 00 00 00 00 00 00 00 00 ...
T0C98 000:345.787   CPU_WriteMem(28 bytes @ 0xE0001000)
T0C98 000:346.754 - 2.384ms returns 0x1C
T0C98 000:346.804 JLINK_ReadReg(R15 (PC))
T0C98 000:346.828 - 0.036ms returns 0x08000100
T0C98 000:346.857 JLINK_ReadReg(XPSR)
T0C98 000:346.876 - 0.033ms returns 0x01000000
T0C98 000:356.595   JLINK_ReadMemEx(0xE0001004, 0x0004 Bytes, ..., Flags = 0x02000000)
T0C98 000:356.640   Data:  00 00 00 00
T0C98 000:356.656    - DWT_CYCCNT
T0C98 000:356.673 - 0.085ms returns 0x04
T0C98 000:452.645 JLINK_SetResetType(JLINKARM_CM3_RESET_TYPE_NORMAL)
T0C98 000:452.677 - 0.037ms returns JLINKARM_CM3_RESET_TYPE_NORMAL
T0C98 000:452.693 JLINK_Reset()
T0C98 000:452.743   CPU_WriteMem(4 bytes @ 0xE000EDF0)
T0C98 000:453.476   CPU_WriteMem(4 bytes @ 0xE000EDFC)
T0C98 000:454.426   Reset: Halt core after reset via DEMCR.VC_CORERESET.
T0C98 000:455.017   Reset: Reset device via AIRCR.SYSRESETREQ.
T0C98 000:455.111   CPU_WriteMem(4 bytes @ 0xE000ED0C)
T0C98 000:509.483   CPU_ReadMem(4 bytes @ 0xE000EDF0)
T0C98 000:510.203   CPU_ReadMem(4 bytes @ 0xE000EDF0)
T0C98 000:511.150   CPU_WriteMem(4 bytes @ 0xE000EDF0)
T0C98 000:512.188   CPU_WriteMem(4 bytes @ 0xE000EDFC)
T0C98 000:518.616   CPU_ReadMem(4 bytes @ 0xE000EDF0)
T0C98 000:523.241   CPU_WriteMem(4 bytes @ 0xE0002000)
T0C98 000:523.988   CPU_ReadMem(4 bytes @ 0xE000EDFC)
T0C98 000:524.591   CPU_ReadMem(4 bytes @ 0xE0001000)
T0C98 000:525.276 - 72.601ms
T0C98 000:525.400 JLINK_ReadReg(R15 (PC))
T0C98 000:525.432 - 0.041ms returns 0x08000100
T0C98 000:525.455 JLINK_ReadReg(XPSR)
T0C98 000:525.468 - 0.018ms returns 0x01000000
T0C98 000:536.898   JLINK_ReadMemEx(0x08000100, 0x003C Bytes, ..., Flags = 0x02000000)
T0C98 000:536.942   CPU_ReadMem(64 bytes @ 0x08000100)
T0C98 000:538.085    -- Updating C cache (64 bytes @ 0x08000100)
T0C98 000:538.120    -- Read from C cache (60 bytes @ 0x08000100)
T0C98 000:538.139   Data:  06 48 80 47 06 48 00 47 FE E7 FE E7 FE E7 FE E7 ...
T0C98 000:538.159 - 1.272ms returns 0x3C
T0C98 000:538.219   JLINK_ReadMemEx(0x08000100, 0x0002 Bytes, ..., Flags = 0x02000000)
T0C98 000:538.253    -- Read from C cache (2 bytes @ 0x08000100)
T0C98 000:538.275   Data:  06 48
T0C98 000:538.290 - 0.079ms returns 0x02
T0C98 000:538.442   JLINK_ReadMemEx(0x08000102, 0x0002 Bytes, ..., Flags = 0x02000000)
T0C98 000:538.466    -- Read from C cache (2 bytes @ 0x08000102)
T0C98 000:538.481   Data:  80 47
T0C98 000:538.496 - 0.060ms returns 0x02
T0C98 000:538.531   JLINK_ReadMemEx(0x08000102, 0x0002 Bytes, ..., Flags = 0x02000000)
T0C98 000:538.548    -- Read from C cache (2 bytes @ 0x08000102)
T0C98 000:538.563   Data:  80 47
T0C98 000:538.578 - 0.053ms returns 0x02
T0C98 000:538.593   JLINK_ReadMemEx(0x08000104, 0x003C Bytes, ..., Flags = 0x02000000)
T0C98 000:538.608    -- Read from C cache (60 bytes @ 0x08000104)
T0C98 000:538.624   Data:  06 48 00 47 FE E7 FE E7 FE E7 FE E7 FE E7 FE E7 ...
T0C98 000:538.639 - 0.052ms returns 0x3C
T0C98 000:538.653   JLINK_ReadMemEx(0x08000104, 0x0002 Bytes, ..., Flags = 0x02000000)
T0C98 000:538.669    -- Read from C cache (2 bytes @ 0x08000104)
T0C98 000:538.684   Data:  06 48
T0C98 000:538.699 - 0.050ms returns 0x02
T0C98 003:340.956 JLINK_ReadReg(R0)
T0C98 003:341.444 - 0.503ms returns 0x0000001A
T0C98 003:341.473 JLINK_ReadReg(R1)
T0C98 003:341.485 - 0.018ms returns 0x00002000
T0C98 003:341.500 JLINK_ReadReg(R2)
T0C98 003:341.511 - 0.016ms returns 0x00000001
T0C98 003:341.526 JLINK_ReadReg(R3)
T0C98 003:341.537 - 0.016ms returns 0xC285ED00
T0C98 003:341.552 JLINK_ReadReg(R4)
T0C98 003:341.562 - 0.016ms returns 0xC285EDB3
T0C98 003:341.577 JLINK_ReadReg(R5)
T0C98 003:341.588 - 0.016ms returns 0x0800355C
T0C98 003:341.602 JLINK_ReadReg(R6)
T0C98 003:341.613 - 0.016ms returns 0x00000020
T0C98 003:341.627 JLINK_ReadReg(R7)
T0C98 003:341.638 - 0.016ms returns 0x00000000
T0C98 003:341.654 JLINK_ReadReg(R8)
T0C98 003:341.725 - 0.089ms returns 0x0000006B
T0C98 003:341.757 JLINK_ReadReg(R9)
T0C98 003:341.771 - 0.020ms returns 0x00000BB8
T0C98 003:341.786 JLINK_ReadReg(R10)
T0C98 003:341.797 - 0.016ms returns 0x00000000
T0C98 003:341.811 JLINK_ReadReg(R11)
T0C98 003:341.821 - 0.016ms returns 0x00000000
T0C98 003:341.836 JLINK_ReadReg(R12)
T0C98 003:341.846 - 0.016ms returns 0x00200000
T0C98 003:341.860 JLINK_ReadReg(R13 (SP))
T0C98 003:341.871 - 0.016ms returns 0x20000D08
T0C98 003:341.885 JLINK_ReadReg(R14)
T0C98 003:341.896 - 0.016ms returns 0xFFFFFFFF
T0C98 003:341.910 JLINK_ReadReg(R15 (PC))
T0C98 003:341.921 - 0.016ms returns 0x08000100
T0C98 003:341.935 JLINK_ReadReg(XPSR)
T0C98 003:341.946 - 0.016ms returns 0x01000000
T0C98 003:341.960 JLINK_ReadReg(MSP)
T0C98 003:341.971 - 0.016ms returns 0x20000D08
T0C98 003:341.985 JLINK_ReadReg(PSP)
T0C98 003:341.995 - 0.015ms returns 0x20001000
T0C98 003:342.009 JLINK_ReadReg(CFBP)
T0C98 003:342.020 - 0.015ms returns 0x00000000
T34C4 003:390.693   JLINK_ReadMemEx(0x08000100, 0x0002 Bytes, ..., Flags = 0x02000000)
T34C4 003:390.740    -- Read from C cache (2 bytes @ 0x08000100)
T34C4 003:390.765   Data:  06 48
T34C4 003:390.789 - 0.106ms returns 0x02
T34C4 003:390.824   JLINK_SetBPEx(Addr = 0x0800343C, Type = 0xFFFFFFF2)
T34C4 003:390.856 - 0.042ms returns 0x00000001
T34C4 003:390.886   JLINK_SetBPEx(Addr = 0x08000516, Type = 0xFFFFFFF2)
T34C4 003:390.913 - 0.037ms returns 0x00000002
T34C4 003:390.947 JLINK_Go()
T34C4 003:391.052   CPU_WriteMem(4 bytes @ 0xE0002000)
T34C4 003:391.738   CPU_WriteMem(4 bytes @ 0xE0002000)
T34C4 003:392.410   CPU_ReadMem(4 bytes @ 0xE0001000)
T34C4 003:393.240   CPU_WriteMem(4 bytes @ 0xE0002008)
T34C4 003:393.279   CPU_WriteMem(4 bytes @ 0xE000200C)
T34C4 003:393.305   CPU_WriteMem(4 bytes @ 0xE0002010)
T34C4 003:393.329   CPU_WriteMem(4 bytes @ 0xE0002014)
T34C4 003:393.352   CPU_WriteMem(4 bytes @ 0xE0002018)
T34C4 003:393.376   CPU_WriteMem(4 bytes @ 0xE000201C)
T34C4 003:395.891   CPU_WriteMem(4 bytes @ 0xE0001004)
T34C4 003:397.043 - 6.116ms
T34C4 003:497.297 JLINK_IsHalted()
T34C4 003:500.850 - 3.573ms returns TRUE
T34C4 003:500.896 JLINK_Halt()
T34C4 003:500.914 - 0.025ms returns 0x00
T34C4 003:500.935 JLINK_IsHalted()
T34C4 003:500.951 - 0.023ms returns TRUE
T34C4 003:500.972 JLINK_IsHalted()
T34C4 003:500.989 - 0.024ms returns TRUE
T34C4 003:501.091 JLINK_IsHalted()
T34C4 003:501.112 - 0.029ms returns TRUE
T34C4 003:501.140 JLINK_ReadReg(R15 (PC))
T34C4 003:501.161 - 0.029ms returns 0x0800343C
T34C4 003:501.183 JLINK_ReadReg(XPSR)
T34C4 003:501.200 - 0.026ms returns 0x61000000
T34C4 003:501.237 JLINK_ClrBPEx(BPHandle = 0x00000001)
T34C4 003:501.291 - 0.063ms returns 0x00
T34C4 003:501.321 JLINK_ClrBPEx(BPHandle = 0x00000002)
T34C4 003:501.340 - 0.027ms returns 0x00
T34C4 003:501.382 JLINK_ReadMemU32(0xE000ED30, 0x0001 Items, ...)
T34C4 003:502.773   CPU_ReadMem(4 bytes @ 0xE000ED30)
T34C4 003:503.600   Data:  03 00 00 00
T34C4 003:503.638 - 2.264ms returns 1
T34C4 003:503.671 JLINK_ReadMemU32(0xE0001028, 0x0001 Items, ...)
T34C4 003:503.706   CPU_ReadMem(4 bytes @ 0xE0001028)
T34C4 003:504.239   Data:  00 00 00 00
T34C4 003:504.294    - DWT_FUNC[0]
T34C4 003:504.317 - 0.654ms returns 1
T34C4 003:504.343 JLINK_ReadMemU32(0xE0001038, 0x0001 Items, ...)
T34C4 003:504.372   CPU_ReadMem(4 bytes @ 0xE0001038)
T34C4 003:504.859   Data:  00 02 00 00
T34C4 003:504.889    - DWT_FUNC[1]
T34C4 003:504.911 - 0.576ms returns 1
T34C4 003:504.937 JLINK_ReadMemU32(0xE0001048, 0x0001 Items, ...)
T34C4 003:504.965   CPU_ReadMem(4 bytes @ 0xE0001048)
T34C4 003:505.417   Data:  00 00 00 00
T34C4 003:505.449    - DWT_FUNC[2]
T34C4 003:505.470 - 0.541ms returns 1
T34C4 003:505.496 JLINK_ReadMemU32(0xE0001058, 0x0001 Items, ...)
T34C4 003:505.523   CPU_ReadMem(4 bytes @ 0xE0001058)
T34C4 003:505.981   Data:  00 00 00 00
T34C4 003:506.013    - DWT_FUNC[3]
T34C4 003:506.033 - 0.545ms returns 1
T34C4 003:506.140 JLINK_ReadReg(R0)
T34C4 003:506.163 - 0.032ms returns 0x0800343D
T34C4 003:506.186 JLINK_ReadReg(R1)
T34C4 003:506.204 - 0.025ms returns 0x20002000
T34C4 003:506.227 JLINK_ReadReg(R2)
T34C4 003:506.291 - 0.075ms returns 0x00000000
T34C4 003:506.318 JLINK_ReadReg(R3)
T34C4 003:506.335 - 0.025ms returns 0x080032DB
T34C4 003:506.356 JLINK_ReadReg(R4)
T34C4 003:506.372 - 0.024ms returns 0x0800355C
T34C4 003:506.393 JLINK_ReadReg(R5)
T34C4 003:506.410 - 0.024ms returns 0x0800355C
T34C4 003:506.431 JLINK_ReadReg(R6)
T34C4 003:506.447 - 0.024ms returns 0x00000020
T34C4 003:506.468 JLINK_ReadReg(R7)
T34C4 003:506.485 - 0.024ms returns 0x00000000
T34C4 003:506.506 JLINK_ReadReg(R8)
T34C4 003:506.564 - 0.068ms returns 0x0000006B
T34C4 003:506.592 JLINK_ReadReg(R9)
T34C4 003:506.642 - 0.060ms returns 0x00000BB8
T34C4 003:506.667 JLINK_ReadReg(R10)
T34C4 003:506.684 - 0.025ms returns 0x00000000
T34C4 003:506.707 JLINK_ReadReg(R11)
T34C4 003:506.725 - 0.025ms returns 0x00000000
T34C4 003:506.746 JLINK_ReadReg(R12)
T34C4 003:506.763 - 0.026ms returns 0x00200000
T34C4 003:506.785 JLINK_ReadReg(R13 (SP))
T34C4 003:506.802 - 0.026ms returns 0x20000D08
T34C4 003:506.824 JLINK_ReadReg(R14)
T34C4 003:506.841 - 0.024ms returns 0x080001A9
T34C4 003:506.863 JLINK_ReadReg(R15 (PC))
T34C4 003:506.880 - 0.025ms returns 0x0800343C
T34C4 003:506.901 JLINK_ReadReg(XPSR)
T34C4 003:506.919 - 0.026ms returns 0x61000000
T34C4 003:506.940 JLINK_ReadReg(MSP)
T34C4 003:506.957 - 0.025ms returns 0x20000D08
T34C4 003:506.979 JLINK_ReadReg(PSP)
T34C4 003:506.994 - 0.023ms returns 0x20001000
T34C4 003:507.015 JLINK_ReadReg(CFBP)
T34C4 003:507.032 - 0.025ms returns 0x00000000
T0C98 003:533.106 JLINK_ReadMemU32(0xE0001004, 0x0001 Items, ...)
T0C98 003:533.161   CPU_ReadMem(4 bytes @ 0xE0001004)
T0C98 003:533.642   Data:  7C 30 00 00
T0C98 003:533.672    - DWT_CYCCNT
T0C98 003:533.691 - 0.593ms returns 1
T0C98 003:534.088   JLINK_ReadMemEx(0x0800343C, 0x003C Bytes, ..., Flags = 0x02000000)
T0C98 003:534.127   CPU_ReadMem(128 bytes @ 0x08003400)
T0C98 003:535.866    -- Updating C cache (128 bytes @ 0x08003400)
T0C98 003:535.901    -- Read from C cache (60 bytes @ 0x0800343C)
T0C98 003:535.925   Data:  05 49 4F F0 00 60 08 60 FE F7 38 FA FF F7 07 FB ...
T0C98 003:535.946 - 1.868ms returns 0x3C
T0C98 003:535.981   JLINK_ReadMemEx(0x0800343C, 0x0002 Bytes, ..., Flags = 0x02000000)
T0C98 003:536.006    -- Read from C cache (2 bytes @ 0x0800343C)
T0C98 003:536.036   Data:  05 49
T0C98 003:536.057 - 0.086ms returns 0x02
T0C98 003:536.085   JLINK_ReadMemEx(0x0800343E, 0x0002 Bytes, ..., Flags = 0x02000000)
T0C98 003:536.109    -- Read from C cache (2 bytes @ 0x0800343E)
T0C98 003:536.130   Data:  4F F0
T0C98 003:536.156 - 0.080ms returns 0x02
T34C4 004:395.292   JLINK_ReadMemEx(0x0800343C, 0x0002 Bytes, ..., Flags = 0x02000000)
T34C4 004:395.332    -- Read from C cache (2 bytes @ 0x0800343C)
T34C4 004:395.349   Data:  05 49
T34C4 004:395.365 - 0.081ms returns 0x02
T34C4 004:395.390   JLINK_SetBPEx(Addr = 0x08000516, Type = 0xFFFFFFF2)
T34C4 004:395.411 - 0.028ms returns 0x00000003
T34C4 004:395.435 JLINK_Go()
T34C4 004:395.921   CPU_WriteMem(4 bytes @ 0xE0002000)
T34C4 004:396.577   CPU_ReadMem(4 bytes @ 0xE0001000)
T34C4 004:397.037   CPU_WriteMem(4 bytes @ 0xE0002008)
T34C4 004:397.073   CPU_WriteMem(4 bytes @ 0xE000200C)
T34C4 004:398.523 - 3.105ms
T34C4 004:499.006 JLINK_IsHalted()
T34C4 004:499.590 - 0.608ms returns FALSE
T34C4 004:600.743 JLINK_IsHalted()
T34C4 004:604.685 - 3.965ms returns TRUE
T34C4 004:604.730 JLINK_Halt()
T34C4 004:604.742 - 0.017ms returns 0x00
T34C4 004:604.756 JLINK_IsHalted()
T34C4 004:604.766 - 0.015ms returns TRUE
T34C4 004:604.781 JLINK_IsHalted()
T34C4 004:604.791 - 0.015ms returns TRUE
T34C4 004:604.804 JLINK_IsHalted()
T34C4 004:604.814 - 0.015ms returns TRUE
T34C4 004:604.833 JLINK_ReadReg(R15 (PC))
T34C4 004:604.848 - 0.020ms returns 0x08000516
T34C4 004:604.863 JLINK_ReadReg(XPSR)
T34C4 004:604.875 - 0.016ms returns 0x61000000
T34C4 004:604.899 JLINK_ClrBPEx(BPHandle = 0x00000003)
T34C4 004:604.911 - 0.018ms returns 0x00
T34C4 004:604.934 JLINK_ReadMemU32(0xE000ED30, 0x0001 Items, ...)
T34C4 004:604.952   CPU_ReadMem(4 bytes @ 0xE000ED30)
T34C4 004:605.492   Data:  03 00 00 00
T34C4 004:605.522 - 0.593ms returns 1
T34C4 004:605.544 JLINK_ReadMemU32(0xE0001028, 0x0001 Items, ...)
T34C4 004:605.567   CPU_ReadMem(4 bytes @ 0xE0001028)
T34C4 004:606.185   Data:  00 00 00 00
T34C4 004:606.208    - DWT_FUNC[0]
T34C4 004:606.223 - 0.685ms returns 1
T34C4 004:606.242 JLINK_ReadMemU32(0xE0001038, 0x0001 Items, ...)
T34C4 004:606.261   CPU_ReadMem(4 bytes @ 0xE0001038)
T34C4 004:607.093   Data:  00 02 00 00
T34C4 004:607.128    - DWT_FUNC[1]
T34C4 004:607.143 - 0.906ms returns 1
T34C4 004:607.165 JLINK_ReadMemU32(0xE0001048, 0x0001 Items, ...)
T34C4 004:607.189   CPU_ReadMem(4 bytes @ 0xE0001048)
T34C4 004:608.027   Data:  00 00 00 00
T34C4 004:608.061    - DWT_FUNC[2]
T34C4 004:608.076 - 0.916ms returns 1
T34C4 004:608.098 JLINK_ReadMemU32(0xE0001058, 0x0001 Items, ...)
T34C4 004:608.122   CPU_ReadMem(4 bytes @ 0xE0001058)
T34C4 004:608.766   Data:  00 00 00 00
T34C4 004:608.800    - DWT_FUNC[3]
T34C4 004:608.816 - 0.723ms returns 1
T34C4 004:608.897 JLINK_ReadReg(R0)
T34C4 004:608.917 - 0.027ms returns 0x0000001A
T34C4 004:608.932 JLINK_ReadReg(R1)
T34C4 004:608.944 - 0.017ms returns 0x00002000
T34C4 004:608.958 JLINK_ReadReg(R2)
T34C4 004:608.969 - 0.016ms returns 0x00000001
T34C4 004:608.984 JLINK_ReadReg(R3)
T34C4 004:608.994 - 0.016ms returns 0xC285EDB3
T34C4 004:609.009 JLINK_ReadReg(R4)
T34C4 004:609.020 - 0.016ms returns 0xC285EDB3
T34C4 004:609.034 JLINK_ReadReg(R5)
T34C4 004:609.045 - 0.016ms returns 0x0800355C
T34C4 004:609.059 JLINK_ReadReg(R6)
T34C4 004:609.070 - 0.016ms returns 0x00000020
T34C4 004:609.084 JLINK_ReadReg(R7)
T34C4 004:609.095 - 0.016ms returns 0x00000000
T34C4 004:609.110 JLINK_ReadReg(R8)
T34C4 004:609.121 - 0.016ms returns 0x0000006B
T34C4 004:609.135 JLINK_ReadReg(R9)
T34C4 004:609.146 - 0.016ms returns 0x00000BB8
T34C4 004:609.160 JLINK_ReadReg(R10)
T34C4 004:609.171 - 0.016ms returns 0x00000000
T34C4 004:609.185 JLINK_ReadReg(R11)
T34C4 004:609.196 - 0.016ms returns 0x00000000
T34C4 004:609.210 JLINK_ReadReg(R12)
T34C4 004:609.221 - 0.016ms returns 0x00200000
T34C4 004:609.235 JLINK_ReadReg(R13 (SP))
T34C4 004:609.246 - 0.016ms returns 0x20000CE0
T34C4 004:609.261 JLINK_ReadReg(R14)
T34C4 004:609.272 - 0.021ms returns 0x080011E1
T34C4 004:609.294 JLINK_ReadReg(R15 (PC))
T34C4 004:609.309 - 0.020ms returns 0x08000516
T34C4 004:609.330 JLINK_ReadReg(XPSR)
T34C4 004:609.360 - 0.041ms returns 0x61000000
T34C4 004:609.390 JLINK_ReadReg(MSP)
T34C4 004:609.420 - 0.045ms returns 0x20000CE0
T34C4 004:609.452 JLINK_ReadReg(PSP)
T34C4 004:609.470 - 0.025ms returns 0x20001000
T34C4 004:609.486 JLINK_ReadReg(CFBP)
T34C4 004:609.497 - 0.016ms returns 0x00000000
T0C98 004:609.758   JLINK_ReadMemEx(0x20000CF4, 0x0004 Bytes, ..., Flags = 0x02000000)
T0C98 004:609.802   CPU_ReadMem(64 bytes @ 0x20000CC0)
T0C98 004:611.304    -- Updating C cache (64 bytes @ 0x20000CC0)
T0C98 004:611.364    -- Read from C cache (4 bytes @ 0x20000CF4)
T0C98 004:611.396   Data:  C7 02 00 08
T0C98 004:611.414 - 1.664ms returns 0x04
T0C98 004:611.873   JLINK_ReadMemEx(0x20000CE4, 0x0004 Bytes, ..., Flags = 0x02000000)
T0C98 004:611.902    -- Read from C cache (4 bytes @ 0x20000CE4)
T0C98 004:611.919   Data:  B3 ED 85 C2
T0C98 004:611.934 - 0.068ms returns 0x04
T0C98 004:611.950   JLINK_ReadMemEx(0x20000CE8, 0x0004 Bytes, ..., Flags = 0x02000000)
T0C98 004:611.967    -- Read from C cache (4 bytes @ 0x20000CE8)
T0C98 004:611.982   Data:  5C 35 00 08
T0C98 004:611.997 - 0.052ms returns 0x04
T0C98 004:612.012   JLINK_ReadMemEx(0x20000CEC, 0x0004 Bytes, ..., Flags = 0x02000000)
T0C98 004:612.027    -- Read from C cache (4 bytes @ 0x20000CEC)
T0C98 004:612.042   Data:  20 00 00 00
T0C98 004:612.057 - 0.051ms returns 0x04
T0C98 004:612.072   JLINK_ReadMemEx(0x20000CF0, 0x0004 Bytes, ..., Flags = 0x02000000)
T0C98 004:612.088    -- Read from C cache (4 bytes @ 0x20000CF0)
T0C98 004:612.103   Data:  00 00 00 00
T0C98 004:612.118 - 0.051ms returns 0x04
T0C98 004:612.133   JLINK_ReadMemEx(0x20000CF4, 0x0004 Bytes, ..., Flags = 0x02000000)
T0C98 004:612.149    -- Read from C cache (4 bytes @ 0x20000CF4)
T0C98 004:612.164   Data:  C7 02 00 08
T0C98 004:612.179 - 0.051ms returns 0x04
T0C98 004:612.195   JLINK_ReadMemEx(0x20000D04, 0x0004 Bytes, ..., Flags = 0x02000000)
T0C98 004:612.218   CPU_ReadMem(64 bytes @ 0x20000D00)
T0C98 004:613.670    -- Updating C cache (64 bytes @ 0x20000D00)
T0C98 004:613.731    -- Read from C cache (4 bytes @ 0x20000D04)
T0C98 004:613.762   Data:  51 34 00 08
T0C98 004:613.785 - 1.598ms returns 0x04
T0C98 004:613.820   JLINK_ReadMemEx(0x20000D04, 0x0004 Bytes, ..., Flags = 0x02000000)
T0C98 004:613.845    -- Read from C cache (4 bytes @ 0x20000D04)
T0C98 004:613.861   Data:  51 34 00 08
T0C98 004:613.876 - 0.062ms returns 0x04
T0C98 004:613.931   JLINK_ReadMemEx(0x20000CE0, 0x0001 Bytes, ..., Flags = 0x02000000)
T0C98 004:613.952    -- Read from C cache (1 bytes @ 0x20000CE0)
T0C98 004:613.967   Data:  B3
T0C98 004:613.982 - 0.056ms returns 0x01
T0C98 004:622.918   JLINK_ReadMemEx(0x20000CE0, 0x0001 Bytes, ..., Flags = 0x02000000)
T0C98 004:622.961    -- Read from C cache (1 bytes @ 0x20000CE0)
T0C98 004:622.976   Data:  B3
T0C98 004:622.992 - 0.081ms returns 0x01
T0C98 004:623.042 JLINK_ReadMemU32(0xE0001004, 0x0001 Items, ...)
T0C98 004:623.064   CPU_ReadMem(4 bytes @ 0xE0001004)
T0C98 004:623.805   Data:  01 88 72 00
T0C98 004:623.837    - DWT_CYCCNT
T0C98 004:623.853 - 0.816ms returns 1
T0C98 004:624.153   JLINK_ReadMemEx(0x08000516, 0x0002 Bytes, ..., Flags = 0x02000000)
T0C98 004:624.183   CPU_ReadMem(64 bytes @ 0x08000500)
T0C98 004:625.701    -- Updating C cache (64 bytes @ 0x08000500)
T0C98 004:625.750    -- Read from C cache (2 bytes @ 0x08000516)
T0C98 004:625.785   Data:  51 A0
T0C98 004:625.816 - 1.678ms returns 0x02
T0C98 004:625.868   JLINK_ReadMemEx(0x08000518, 0x003C Bytes, ..., Flags = 0x02000000)
T0C98 004:625.905   CPU_ReadMem(64 bytes @ 0x08000540)
T0C98 004:627.349    -- Updating C cache (64 bytes @ 0x08000540)
T0C98 004:627.405    -- Read from C cache (60 bytes @ 0x08000518)
T0C98 004:627.433   Data:  02 F0 2E FA 50 A0 02 F0 2B FA 00 25 8D F8 00 50 ...
T0C98 004:627.449 - 1.588ms returns 0x3C
T0C98 004:627.472   JLINK_ReadMemEx(0x08000518, 0x0002 Bytes, ..., Flags = 0x02000000)
T0C98 004:627.499    -- Read from C cache (2 bytes @ 0x08000518)
T0C98 004:627.514   Data:  02 F0
T0C98 004:627.529 - 0.064ms returns 0x02
T34C4 006:246.475   JLINK_ReadMemEx(0x08000516, 0x0002 Bytes, ..., Flags = 0x02000000)
T34C4 006:246.513    -- Read from C cache (2 bytes @ 0x08000516)
T34C4 006:246.530   Data:  51 A0
T34C4 006:246.546 - 0.077ms returns 0x02
T34C4 006:246.570 JLINK_Step()
T34C4 006:247.015    -- Read from C cache (2 bytes @ 0x08000516)
T34C4 006:247.055   CPU_ReadMem(4 bytes @ 0xE000ED18)
T34C4 006:247.596   CPU_WriteMem(4 bytes @ 0xE000ED18)
T34C4 006:248.124   CPU_ReadMem(4 bytes @ 0xE000ED18)
T34C4 006:248.597   CPU_WriteMem(4 bytes @ 0xE000ED18)
T34C4 006:249.282    -- Simulated
T34C4 006:249.318 - 2.755ms returns 0x00
T34C4 006:249.353 JLINK_ReadReg(R15 (PC))
T34C4 006:249.376 - 0.030ms returns 0x08000518
T34C4 006:249.396 JLINK_ReadReg(XPSR)
T34C4 006:249.412 - 0.023ms returns 0x61000000
T34C4 006:249.450   JLINK_ReadMemEx(0x08000518, 0x003C Bytes, ..., Flags = 0x02000000)
T34C4 006:249.478    -- Read from C cache (60 bytes @ 0x08000518)
T34C4 006:249.501   Data:  02 F0 2E FA 50 A0 02 F0 2B FA 00 25 8D F8 00 50 ...
T34C4 006:249.522 - 0.080ms returns 0x3C
T34C4 006:249.543   JLINK_ReadMemEx(0x08000518, 0x0002 Bytes, ..., Flags = 0x02000000)
T34C4 006:249.565    -- Read from C cache (2 bytes @ 0x08000518)
T34C4 006:249.586   Data:  02 F0
T34C4 006:249.607 - 0.072ms returns 0x02
T34C4 006:249.630   JLINK_ReadMemEx(0x0800051A, 0x0002 Bytes, ..., Flags = 0x02000000)
T34C4 006:249.658    -- Read from C cache (2 bytes @ 0x0800051A)
T34C4 006:249.681   Data:  2E FA
T34C4 006:249.701 - 0.080ms returns 0x02
T34C4 006:249.733   JLINK_SetBPEx(Addr = 0x0800051C, Type = 0xFFFFFFF2)
T34C4 006:249.761 - 0.036ms returns 0x00000004
T34C4 006:249.788   JLINK_SetBPEx(Addr = 0x08000516, Type = 0xFFFFFFF2)
T34C4 006:249.816 - 0.039ms returns 0x00000005
T34C4 006:249.849 JLINK_Go()
T34C4 006:249.876   CPU_WriteMem(4 bytes @ 0xE0002000)
T34C4 006:250.377   CPU_WriteMem(4 bytes @ 0xE0002000)
T34C4 006:250.937   CPU_ReadMem(4 bytes @ 0xE0001000)
T34C4 006:251.527   CPU_WriteMem(4 bytes @ 0xE0002008)
T34C4 006:251.556   CPU_WriteMem(4 bytes @ 0xE000200C)
T34C4 006:252.459   CPU_WriteMem(4 bytes @ 0xE0001004)
T34C4 006:254.264 - 4.433ms
T34C4 006:355.029 JLINK_IsHalted()
T34C4 006:358.789 - 3.786ms returns TRUE
T34C4 006:358.837 JLINK_Halt()
T34C4 006:358.849 - 0.017ms returns 0x00
T34C4 006:358.865 JLINK_IsHalted()
T34C4 006:358.875 - 0.016ms returns TRUE
T34C4 006:358.890 JLINK_IsHalted()
T34C4 006:358.900 - 0.015ms returns TRUE
T34C4 006:358.914 JLINK_IsHalted()
T34C4 006:358.924 - 0.015ms returns TRUE
T34C4 006:358.943 JLINK_ReadReg(R15 (PC))
T34C4 006:358.957 - 0.019ms returns 0x0800051C
T34C4 006:358.972 JLINK_ReadReg(XPSR)
T34C4 006:358.983 - 0.016ms returns 0x61000000
T34C4 006:359.007 JLINK_ClrBPEx(BPHandle = 0x00000004)
T34C4 006:359.019 - 0.017ms returns 0x00
T34C4 006:359.037 JLINK_ClrBPEx(BPHandle = 0x00000005)
T34C4 006:359.048 - 0.016ms returns 0x00
T34C4 006:359.069 JLINK_ReadMemU32(0xE000ED30, 0x0001 Items, ...)
T34C4 006:359.088   CPU_ReadMem(4 bytes @ 0xE000ED30)
T34C4 006:359.594   Data:  03 00 00 00
T34C4 006:359.631 - 0.572ms returns 1
T34C4 006:359.663 JLINK_ReadMemU32(0xE0001028, 0x0001 Items, ...)
T34C4 006:359.697   CPU_ReadMem(4 bytes @ 0xE0001028)
T34C4 006:360.175   Data:  00 00 00 00
T34C4 006:360.201    - DWT_FUNC[0]
T34C4 006:360.216 - 0.558ms returns 1
T34C4 006:360.236 JLINK_ReadMemU32(0xE0001038, 0x0001 Items, ...)
T34C4 006:360.266   CPU_ReadMem(4 bytes @ 0xE0001038)
T34C4 006:360.732   Data:  00 02 00 00
T34C4 006:360.755    - DWT_FUNC[1]
T34C4 006:360.770 - 0.539ms returns 1
T34C4 006:360.789 JLINK_ReadMemU32(0xE0001048, 0x0001 Items, ...)
T34C4 006:360.808   CPU_ReadMem(4 bytes @ 0xE0001048)
T34C4 006:361.260   Data:  00 00 00 00
T34C4 006:361.283    - DWT_FUNC[2]
T34C4 006:361.298 - 0.514ms returns 1
T34C4 006:361.317 JLINK_ReadMemU32(0xE0001058, 0x0001 Items, ...)
T34C4 006:361.417   CPU_ReadMem(4 bytes @ 0xE0001058)
T34C4 006:361.908   Data:  00 00 00 00
T34C4 006:361.944    - DWT_FUNC[3]
T34C4 006:361.965 - 0.655ms returns 1
T34C4 006:362.073 JLINK_ReadReg(R0)
T34C4 006:362.105 - 0.046ms returns 0x00000000
T34C4 006:362.133 JLINK_ReadReg(R1)
T34C4 006:362.150 - 0.024ms returns 0x00000040
T34C4 006:362.170 JLINK_ReadReg(R2)
T34C4 006:362.186 - 0.024ms returns 0x00000000
T34C4 006:362.206 JLINK_ReadReg(R3)
T34C4 006:362.222 - 0.025ms returns 0x00000064
T34C4 006:362.244 JLINK_ReadReg(R4)
T34C4 006:362.259 - 0.023ms returns 0xC285EDB3
T34C4 006:362.280 JLINK_ReadReg(R5)
T34C4 006:362.296 - 0.024ms returns 0x0800355C
T34C4 006:362.315 JLINK_ReadReg(R6)
T34C4 006:362.332 - 0.024ms returns 0x00000020
T34C4 006:362.352 JLINK_ReadReg(R7)
T34C4 006:362.368 - 0.023ms returns 0x00000000
T34C4 006:362.392 JLINK_ReadReg(R8)
T34C4 006:362.411 - 0.025ms returns 0x0000006B
T34C4 006:362.427 JLINK_ReadReg(R9)
T34C4 006:362.439 - 0.017ms returns 0x00000BB8
T34C4 006:362.454 JLINK_ReadReg(R10)
T34C4 006:362.478 - 0.031ms returns 0x00000000
T34C4 006:362.499 JLINK_ReadReg(R11)
T34C4 006:362.514 - 0.023ms returns 0x00000000
T34C4 006:362.534 JLINK_ReadReg(R12)
T34C4 006:362.550 - 0.023ms returns 0x00200000
T34C4 006:362.569 JLINK_ReadReg(R13 (SP))
T34C4 006:362.611 - 0.050ms returns 0x20000CE0
T34C4 006:362.633 JLINK_ReadReg(R14)
T34C4 006:362.651 - 0.026ms returns 0x08002DB5
T34C4 006:362.669 JLINK_ReadReg(R15 (PC))
T34C4 006:362.681 - 0.017ms returns 0x0800051C
T34C4 006:362.696 JLINK_ReadReg(XPSR)
T34C4 006:362.708 - 0.017ms returns 0x61000000
T34C4 006:362.723 JLINK_ReadReg(MSP)
T34C4 006:362.734 - 0.016ms returns 0x20000CE0
T34C4 006:362.748 JLINK_ReadReg(PSP)
T34C4 006:362.759 - 0.016ms returns 0x20001000
T34C4 006:362.774 JLINK_ReadReg(CFBP)
T34C4 006:362.785 - 0.016ms returns 0x00000000
T0C98 006:362.980   JLINK_ReadMemEx(0x20000CF4, 0x0004 Bytes, ..., Flags = 0x02000000)
T0C98 006:363.022   CPU_ReadMem(64 bytes @ 0x20000CC0)
T0C98 006:364.192    -- Updating C cache (64 bytes @ 0x20000CC0)
T0C98 006:364.225    -- Read from C cache (4 bytes @ 0x20000CF4)
T0C98 006:364.242   Data:  C7 02 00 08
T0C98 006:364.258 - 1.285ms returns 0x04
T0C98 006:364.292   JLINK_ReadMemEx(0x20000CE4, 0x0004 Bytes, ..., Flags = 0x02000000)
T0C98 006:364.315    -- Read from C cache (4 bytes @ 0x20000CE4)
T0C98 006:364.331   Data:  B3 ED 85 C2
T0C98 006:364.346 - 0.060ms returns 0x04
T0C98 006:364.362   JLINK_ReadMemEx(0x20000CE8, 0x0004 Bytes, ..., Flags = 0x02000000)
T0C98 006:364.380    -- Read from C cache (4 bytes @ 0x20000CE8)
T0C98 006:364.396   Data:  5C 35 00 08
T0C98 006:364.411 - 0.055ms returns 0x04
T0C98 006:364.427   JLINK_ReadMemEx(0x20000CEC, 0x0004 Bytes, ..., Flags = 0x02000000)
T0C98 006:364.443    -- Read from C cache (4 bytes @ 0x20000CEC)
T0C98 006:364.459   Data:  20 00 00 00
T0C98 006:364.474 - 0.053ms returns 0x04
T0C98 006:364.489   JLINK_ReadMemEx(0x20000CF0, 0x0004 Bytes, ..., Flags = 0x02000000)
T0C98 006:364.506    -- Read from C cache (4 bytes @ 0x20000CF0)
T0C98 006:364.521   Data:  00 00 00 00
T0C98 006:364.536 - 0.053ms returns 0x04
T0C98 006:364.551   JLINK_ReadMemEx(0x20000CF4, 0x0004 Bytes, ..., Flags = 0x02000000)
T0C98 006:364.568    -- Read from C cache (4 bytes @ 0x20000CF4)
T0C98 006:364.590   Data:  C7 02 00 08
T0C98 006:364.605 - 0.059ms returns 0x04
T0C98 006:364.623   JLINK_ReadMemEx(0x20000D04, 0x0004 Bytes, ..., Flags = 0x02000000)
T0C98 006:364.644   CPU_ReadMem(64 bytes @ 0x20000D00)
T0C98 006:365.766    -- Updating C cache (64 bytes @ 0x20000D00)
T0C98 006:365.812    -- Read from C cache (4 bytes @ 0x20000D04)
T0C98 006:365.829   Data:  51 34 00 08
T0C98 006:365.845 - 1.228ms returns 0x04
T0C98 006:365.878   JLINK_ReadMemEx(0x20000D04, 0x0004 Bytes, ..., Flags = 0x02000000)
T0C98 006:365.902    -- Read from C cache (4 bytes @ 0x20000D04)
T0C98 006:365.917   Data:  51 34 00 08
T0C98 006:365.932 - 0.063ms returns 0x04
T0C98 006:365.972   JLINK_ReadMemEx(0x20000CE0, 0x0001 Bytes, ..., Flags = 0x02000000)
T0C98 006:366.075    -- Read from C cache (1 bytes @ 0x20000CE0)
T0C98 006:366.091   Data:  B3
T0C98 006:366.107 - 0.141ms returns 0x01
T0C98 006:366.167 JLINK_ReadMemU32(0xE0001004, 0x0001 Items, ...)
T0C98 006:366.188   CPU_ReadMem(4 bytes @ 0xE0001004)
T0C98 006:366.716   Data:  82 BA 72 00
T0C98 006:366.819    - DWT_CYCCNT
T0C98 006:366.841 - 0.682ms returns 1
T34C4 006:707.079   JLINK_ReadMemEx(0x0800051C, 0x003C Bytes, ..., Flags = 0x02000000)
T34C4 006:707.121   CPU_ReadMem(128 bytes @ 0x08000500)
T34C4 006:708.870    -- Updating C cache (128 bytes @ 0x08000500)
T34C4 006:708.900    -- Read from C cache (60 bytes @ 0x0800051C)
T34C4 006:708.919   Data:  50 A0 02 F0 2B FA 00 25 8D F8 00 50 40 F6 B8 33 ...
T34C4 006:708.934 - 1.862ms returns 0x3C
T34C4 006:708.956   JLINK_ReadMemEx(0x0800051C, 0x0002 Bytes, ..., Flags = 0x02000000)
T34C4 006:708.974    -- Read from C cache (2 bytes @ 0x0800051C)
T34C4 006:708.990   Data:  50 A0
T34C4 006:709.005 - 0.056ms returns 0x02
T34C4 006:709.023   JLINK_ReadMemEx(0x0800051E, 0x0002 Bytes, ..., Flags = 0x02000000)
T34C4 006:709.040    -- Read from C cache (2 bytes @ 0x0800051E)
T34C4 006:709.055   Data:  02 F0
T34C4 006:709.070 - 0.053ms returns 0x02
T34C4 006:709.087   JLINK_ReadMemEx(0x0800051C, 0x0002 Bytes, ..., Flags = 0x02000000)
T34C4 006:709.103    -- Read from C cache (2 bytes @ 0x0800051C)
T34C4 006:709.119   Data:  50 A0
T34C4 006:709.134 - 0.053ms returns 0x02
T34C4 006:709.155 JLINK_Step()
T34C4 006:709.171    -- Read from C cache (2 bytes @ 0x0800051C)
T34C4 006:709.190    -- Simulated
T34C4 006:709.205 - 0.055ms returns 0x00
T34C4 006:709.224 JLINK_ReadReg(R15 (PC))
T34C4 006:709.237 - 0.018ms returns 0x0800051E
T34C4 006:709.252 JLINK_ReadReg(XPSR)
T34C4 006:709.263 - 0.016ms returns 0x61000000
T34C4 006:709.289   JLINK_ReadMemEx(0x0800051E, 0x0002 Bytes, ..., Flags = 0x02000000)
T34C4 006:709.305    -- Read from C cache (2 bytes @ 0x0800051E)
T34C4 006:709.320   Data:  02 F0
T34C4 006:709.336 - 0.052ms returns 0x02
T34C4 006:709.350   JLINK_ReadMemEx(0x08000520, 0x003C Bytes, ..., Flags = 0x02000000)
T34C4 006:709.366    -- Read from C cache (60 bytes @ 0x08000520)
T34C4 006:709.385   Data:  2B FA 00 25 8D F8 00 50 40 F6 B8 33 01 22 69 46 ...
T34C4 006:709.400 - 0.055ms returns 0x3C
T34C4 006:709.415   JLINK_ReadMemEx(0x08000520, 0x0002 Bytes, ..., Flags = 0x02000000)
T34C4 006:709.430    -- Read from C cache (2 bytes @ 0x08000520)
T34C4 006:709.445   Data:  2B FA
T34C4 006:709.460 - 0.051ms returns 0x02
T34C4 006:709.480   JLINK_SetBPEx(Addr = 0x08000522, Type = 0xFFFFFFF2)
T34C4 006:709.498 - 0.023ms returns 0x00000006
T34C4 006:709.516   JLINK_SetBPEx(Addr = 0x08000516, Type = 0xFFFFFFF2)
T34C4 006:709.532 - 0.021ms returns 0x00000007
T34C4 006:709.554 JLINK_Go()
T34C4 006:709.570   CPU_WriteMem(4 bytes @ 0xE0002000)
T34C4 006:710.111   CPU_WriteMem(4 bytes @ 0xE0002000)
T34C4 006:710.598   CPU_ReadMem(4 bytes @ 0xE0001000)
T34C4 006:711.117   CPU_WriteMem(4 bytes @ 0xE0002008)
T34C4 006:711.787   CPU_WriteMem(4 bytes @ 0xE0001004)
T34C4 006:714.622 - 5.092ms
T34C4 006:815.416 JLINK_IsHalted()
T34C4 006:818.895 - 3.506ms returns TRUE
T34C4 006:818.946 JLINK_Halt()
T34C4 006:818.958 - 0.017ms returns 0x00
T34C4 006:818.973 JLINK_IsHalted()
T34C4 006:818.984 - 0.016ms returns TRUE
T34C4 006:818.998 JLINK_IsHalted()
T34C4 006:819.008 - 0.015ms returns TRUE
T34C4 006:819.022 JLINK_IsHalted()
T34C4 006:819.032 - 0.015ms returns TRUE
T34C4 006:819.051 JLINK_ReadReg(R15 (PC))
T34C4 006:819.066 - 0.021ms returns 0x08000522
T34C4 006:819.081 JLINK_ReadReg(XPSR)
T34C4 006:819.093 - 0.017ms returns 0x61000000
T34C4 006:819.117 JLINK_ClrBPEx(BPHandle = 0x00000006)
T34C4 006:819.130 - 0.017ms returns 0x00
T34C4 006:819.148 JLINK_ClrBPEx(BPHandle = 0x00000007)
T34C4 006:819.159 - 0.016ms returns 0x00
T34C4 006:819.181 JLINK_ReadMemU32(0xE000ED30, 0x0001 Items, ...)
T34C4 006:819.200   CPU_ReadMem(4 bytes @ 0xE000ED30)
T34C4 006:820.156   Data:  03 00 00 00
T34C4 006:820.190 - 1.019ms returns 1
T34C4 006:820.219 JLINK_ReadMemU32(0xE0001028, 0x0001 Items, ...)
T34C4 006:820.244   CPU_ReadMem(4 bytes @ 0xE0001028)
T34C4 006:821.166   Data:  00 00 00 00
T34C4 006:821.200    - DWT_FUNC[0]
T34C4 006:821.215 - 1.001ms returns 1
T34C4 006:821.237 JLINK_ReadMemU32(0xE0001038, 0x0001 Items, ...)
T34C4 006:821.262   CPU_ReadMem(4 bytes @ 0xE0001038)
T34C4 006:822.148   Data:  00 02 00 00
T34C4 006:822.182    - DWT_FUNC[1]
T34C4 006:822.197 - 0.966ms returns 1
T34C4 006:822.219 JLINK_ReadMemU32(0xE0001048, 0x0001 Items, ...)
T34C4 006:822.244   CPU_ReadMem(4 bytes @ 0xE0001048)
T34C4 006:823.156   Data:  00 00 00 00
T34C4 006:823.190    - DWT_FUNC[2]
T34C4 006:823.205 - 0.991ms returns 1
T34C4 006:823.227 JLINK_ReadMemU32(0xE0001058, 0x0001 Items, ...)
T34C4 006:823.252   CPU_ReadMem(4 bytes @ 0xE0001058)
T34C4 006:824.103   Data:  00 00 00 00
T34C4 006:824.138    - DWT_FUNC[3]
T34C4 006:824.153 - 0.932ms returns 1
T34C4 006:824.238 JLINK_ReadReg(R0)
T34C4 006:824.260 - 0.027ms returns 0x00000000
T34C4 006:824.275 JLINK_ReadReg(R1)
T34C4 006:824.286 - 0.016ms returns 0x00000040
T34C4 006:824.300 JLINK_ReadReg(R2)
T34C4 006:824.311 - 0.016ms returns 0x00000000
T34C4 006:824.325 JLINK_ReadReg(R3)
T34C4 006:824.336 - 0.016ms returns 0x00000064
T34C4 006:824.350 JLINK_ReadReg(R4)
T34C4 006:824.361 - 0.016ms returns 0xC285EDB3
T34C4 006:824.375 JLINK_ReadReg(R5)
T34C4 006:824.390 - 0.021ms returns 0x0800355C
T34C4 006:824.415 JLINK_ReadReg(R6)
T34C4 006:824.441 - 0.039ms returns 0x00000020
T34C4 006:824.477 JLINK_ReadReg(R7)
T34C4 006:824.507 - 0.041ms returns 0x00000000
T34C4 006:824.530 JLINK_ReadReg(R8)
T34C4 006:824.546 - 0.021ms returns 0x0000006B
T34C4 006:824.561 JLINK_ReadReg(R9)
T34C4 006:824.572 - 0.017ms returns 0x00000BB8
T34C4 006:824.587 JLINK_ReadReg(R10)
T34C4 006:824.598 - 0.016ms returns 0x00000000
T34C4 006:824.612 JLINK_ReadReg(R11)
T34C4 006:824.624 - 0.016ms returns 0x00000000
T34C4 006:824.638 JLINK_ReadReg(R12)
T34C4 006:824.649 - 0.016ms returns 0x00200000
T34C4 006:824.663 JLINK_ReadReg(R13 (SP))
T34C4 006:824.674 - 0.016ms returns 0x20000CE0
T34C4 006:824.688 JLINK_ReadReg(R14)
T34C4 006:824.699 - 0.016ms returns 0x08002DB5
T34C4 006:824.713 JLINK_ReadReg(R15 (PC))
T34C4 006:824.725 - 0.016ms returns 0x08000522
T34C4 006:824.739 JLINK_ReadReg(XPSR)
T34C4 006:824.750 - 0.016ms returns 0x61000000
T34C4 006:824.763 JLINK_ReadReg(MSP)
T34C4 006:824.775 - 0.016ms returns 0x20000CE0
T34C4 006:824.789 JLINK_ReadReg(PSP)
T34C4 006:824.799 - 0.016ms returns 0x20001000
T34C4 006:824.813 JLINK_ReadReg(CFBP)
T34C4 006:824.825 - 0.016ms returns 0x00000000
T0C98 006:825.095   JLINK_ReadMemEx(0x20000CF4, 0x0004 Bytes, ..., Flags = 0x02000000)
T0C98 006:825.140   CPU_ReadMem(64 bytes @ 0x20000CC0)
T0C98 006:826.639    -- Updating C cache (64 bytes @ 0x20000CC0)
T0C98 006:826.694    -- Read from C cache (4 bytes @ 0x20000CF4)
T0C98 006:826.721   Data:  C7 02 00 08
T0C98 006:826.743 - 1.657ms returns 0x04
T0C98 006:826.785   JLINK_ReadMemEx(0x20000CE4, 0x0004 Bytes, ..., Flags = 0x02000000)
T0C98 006:826.820    -- Read from C cache (4 bytes @ 0x20000CE4)
T0C98 006:826.839   Data:  B3 ED 85 C2
T0C98 006:826.854 - 0.076ms returns 0x04
T0C98 006:826.871   JLINK_ReadMemEx(0x20000CE8, 0x0004 Bytes, ..., Flags = 0x02000000)
T0C98 006:826.888    -- Read from C cache (4 bytes @ 0x20000CE8)
T0C98 006:826.903   Data:  5C 35 00 08
T0C98 006:826.918 - 0.053ms returns 0x04
T0C98 006:826.933   JLINK_ReadMemEx(0x20000CEC, 0x0004 Bytes, ..., Flags = 0x02000000)
T0C98 006:826.949    -- Read from C cache (4 bytes @ 0x20000CEC)
T0C98 006:826.964   Data:  20 00 00 00
T0C98 006:826.979 - 0.051ms returns 0x04
T0C98 006:826.994   JLINK_ReadMemEx(0x20000CF0, 0x0004 Bytes, ..., Flags = 0x02000000)
T0C98 006:827.010    -- Read from C cache (4 bytes @ 0x20000CF0)
T0C98 006:827.025   Data:  00 00 00 00
T0C98 006:827.040 - 0.051ms returns 0x04
T0C98 006:827.055   JLINK_ReadMemEx(0x20000CF4, 0x0004 Bytes, ..., Flags = 0x02000000)
T0C98 006:827.071    -- Read from C cache (4 bytes @ 0x20000CF4)
T0C98 006:827.095   Data:  C7 02 00 08
T0C98 006:827.110 - 0.061ms returns 0x04
T0C98 006:827.128   JLINK_ReadMemEx(0x20000D04, 0x0004 Bytes, ..., Flags = 0x02000000)
T0C98 006:827.151   CPU_ReadMem(64 bytes @ 0x20000D00)
T0C98 006:828.759    -- Updating C cache (64 bytes @ 0x20000D00)
T0C98 006:828.812    -- Read from C cache (4 bytes @ 0x20000D04)
T0C98 006:828.837   Data:  51 34 00 08
T0C98 006:828.862 - 1.748ms returns 0x04
T0C98 006:828.920   JLINK_ReadMemEx(0x20000D04, 0x0004 Bytes, ..., Flags = 0x02000000)
T0C98 006:828.962    -- Read from C cache (4 bytes @ 0x20000D04)
T0C98 006:828.981   Data:  51 34 00 08
T0C98 006:828.996 - 0.082ms returns 0x04
T0C98 006:829.023   JLINK_ReadMemEx(0x20000CE0, 0x0001 Bytes, ..., Flags = 0x02000000)
T0C98 006:829.041    -- Read from C cache (1 bytes @ 0x20000CE0)
T0C98 006:829.056   Data:  B3
T0C98 006:829.071 - 0.054ms returns 0x01
T0C98 006:829.124 JLINK_ReadMemU32(0xE0001004, 0x0001 Items, ...)
T0C98 006:829.146   CPU_ReadMem(4 bytes @ 0xE0001004)
T0C98 006:830.128   Data:  FA 5D 76 00
T0C98 006:830.162    - DWT_CYCCNT
T0C98 006:830.177 - 1.059ms returns 1
T0C98 006:830.467   JLINK_ReadMemEx(0x08000522, 0x0002 Bytes, ..., Flags = 0x02000000)
T0C98 006:830.507   CPU_ReadMem(64 bytes @ 0x08000500)
T0C98 006:831.767    -- Updating C cache (64 bytes @ 0x08000500)
T0C98 006:831.827    -- Read from C cache (2 bytes @ 0x08000522)
T0C98 006:831.905   Data:  00 25
T0C98 006:831.948 - 1.490ms returns 0x02
T0C98 006:831.989   JLINK_ReadMemEx(0x08000524, 0x003C Bytes, ..., Flags = 0x02000000)
T0C98 006:832.024   CPU_ReadMem(64 bytes @ 0x08000540)
T0C98 006:833.368    -- Updating C cache (64 bytes @ 0x08000540)
T0C98 006:833.423    -- Read from C cache (60 bytes @ 0x08000524)
T0C98 006:833.446   Data:  8D F8 00 50 40 F6 B8 33 01 22 69 46 55 48 01 F0 ...
T0C98 006:833.461 - 1.479ms returns 0x3C
T0C98 006:833.489   JLINK_ReadMemEx(0x08000524, 0x0002 Bytes, ..., Flags = 0x02000000)
T0C98 006:833.507    -- Read from C cache (2 bytes @ 0x08000524)
T0C98 006:833.523   Data:  8D F8
T0C98 006:833.538 - 0.055ms returns 0x02
T34C4 007:160.355   JLINK_ReadMemEx(0x08000522, 0x0002 Bytes, ..., Flags = 0x02000000)
T34C4 007:160.389    -- Read from C cache (2 bytes @ 0x08000522)
T34C4 007:160.406   Data:  00 25
T34C4 007:160.422 - 0.073ms returns 0x02
T34C4 007:160.450 JLINK_Step()
T34C4 007:160.475    -- Read from C cache (2 bytes @ 0x08000522)
T34C4 007:160.533    -- Simulated
T34C4 007:160.557 - 0.114ms returns 0x00
T34C4 007:160.584 JLINK_ReadReg(R15 (PC))
T34C4 007:160.606 - 0.033ms returns 0x08000524
T34C4 007:160.632 JLINK_ReadReg(XPSR)
T34C4 007:160.655 - 0.031ms returns 0x61000000
T34C4 007:160.687   JLINK_ReadMemEx(0x08000524, 0x003C Bytes, ..., Flags = 0x02000000)
T34C4 007:160.709    -- Read from C cache (60 bytes @ 0x08000524)
T34C4 007:160.726   Data:  8D F8 00 50 40 F6 B8 33 01 22 69 46 55 48 01 F0 ...
T34C4 007:160.741 - 0.060ms returns 0x3C
T34C4 007:160.756   JLINK_ReadMemEx(0x08000524, 0x0002 Bytes, ..., Flags = 0x02000000)
T34C4 007:160.772    -- Read from C cache (2 bytes @ 0x08000524)
T34C4 007:160.787   Data:  8D F8
T34C4 007:160.802 - 0.051ms returns 0x02
T34C4 007:160.818   JLINK_ReadMemEx(0x08000526, 0x0002 Bytes, ..., Flags = 0x02000000)
T34C4 007:160.833    -- Read from C cache (2 bytes @ 0x08000526)
T34C4 007:160.848   Data:  00 50
T34C4 007:160.863 - 0.050ms returns 0x02
T34C4 007:160.882 JLINK_Step()
T34C4 007:160.895    -- Read from C cache (2 bytes @ 0x08000524)
T34C4 007:160.912    -- Read from C cache (2 bytes @ 0x08000526)
T34C4 007:160.927    -- Not simulated
T34C4 007:160.955   CPU_WriteMem(4 bytes @ 0xE0002008)
T34C4 007:160.972   CPU_WriteMem(4 bytes @ 0xE000200C)
T34C4 007:161.845   CPU_WriteMem(4 bytes @ 0xE0001004)
T34C4 007:167.001 - 6.142ms returns 0x00
T34C4 007:167.054 JLINK_ReadReg(R15 (PC))
T34C4 007:167.071 - 0.023ms returns 0x08000528
T34C4 007:167.087 JLINK_ReadReg(XPSR)
T34C4 007:167.100 - 0.018ms returns 0x61000000
T34C4 007:167.311 JLINK_ReadReg(R0)
T34C4 007:167.348 - 0.043ms returns 0x00000000
T34C4 007:167.364 JLINK_ReadReg(R1)
T34C4 007:167.376 - 0.017ms returns 0x00000040
T34C4 007:167.390 JLINK_ReadReg(R2)
T34C4 007:167.401 - 0.016ms returns 0x00000000
T34C4 007:167.416 JLINK_ReadReg(R3)
T34C4 007:167.427 - 0.016ms returns 0x00000064
T34C4 007:167.441 JLINK_ReadReg(R4)
T34C4 007:167.452 - 0.016ms returns 0xC285EDB3
T34C4 007:167.470 JLINK_ReadReg(R5)
T34C4 007:167.482 - 0.017ms returns 0x00000000
T34C4 007:167.496 JLINK_ReadReg(R6)
T34C4 007:167.507 - 0.016ms returns 0x00000020
T34C4 007:167.522 JLINK_ReadReg(R7)
T34C4 007:167.533 - 0.016ms returns 0x00000000
T34C4 007:167.547 JLINK_ReadReg(R8)
T34C4 007:167.558 - 0.016ms returns 0x0000006B
T34C4 007:167.573 JLINK_ReadReg(R9)
T34C4 007:167.584 - 0.016ms returns 0x00000BB8
T34C4 007:167.598 JLINK_ReadReg(R10)
T34C4 007:167.609 - 0.016ms returns 0x00000000
T34C4 007:167.623 JLINK_ReadReg(R11)
T34C4 007:167.634 - 0.016ms returns 0x00000000
T34C4 007:167.648 JLINK_ReadReg(R12)
T34C4 007:167.659 - 0.016ms returns 0x00200000
T34C4 007:167.674 JLINK_ReadReg(R13 (SP))
T34C4 007:167.685 - 0.016ms returns 0x20000CE0
T34C4 007:167.699 JLINK_ReadReg(R14)
T34C4 007:167.710 - 0.016ms returns 0x08002DB5
T34C4 007:167.724 JLINK_ReadReg(R15 (PC))
T34C4 007:167.736 - 0.016ms returns 0x08000528
T34C4 007:167.750 JLINK_ReadReg(XPSR)
T34C4 007:167.761 - 0.016ms returns 0x61000000
T34C4 007:167.775 JLINK_ReadReg(MSP)
T34C4 007:167.786 - 0.016ms returns 0x20000CE0
T34C4 007:167.800 JLINK_ReadReg(PSP)
T34C4 007:167.811 - 0.016ms returns 0x20001000
T34C4 007:167.825 JLINK_ReadReg(CFBP)
T34C4 007:167.836 - 0.015ms returns 0x00000000
T0C98 007:168.084   JLINK_ReadMemEx(0x20000CF4, 0x0004 Bytes, ..., Flags = 0x02000000)
